
T1220 000:315 SEGGER J-Link V5.12e Log File (0001ms, 0283ms total)
T1220 000:315 DLL Compiled: Apr 29 2016 15:03:58 (0001ms, 0283ms total)
T1220 000:315 Logging started @ 2017-02-07 16:46 (0001ms, 0283ms total)
T1220 000:316 JLINK_SetWarnOutHandler(...) (0000ms, 0283ms total)
T1220 000:316 JLINK_OpenEx(...)
Firmware: J-Link ARM V8 compiled Nov 28 2014 13:44:46
Hardware: V8.00
S/N: 99991999
Feature(s): RDI,FlashDL,FlashBP,JFlash,GDBFULL  returns O.K. (0277ms, 0560ms total)
T1220 000:593 JLINK_SetErrorOutHandler(...) (0000ms, 0560ms total)
T1220 000:593 JLINK_ExecCommand("ProjectFile = "D:\³£ÓÃÄ£¿é\DHT11\Temperature-Humidity-Sensor-code\STM32F10X\Temperature-Humidity Sensor\MDK_Project\JLinkSettings.ini"", ...)  returns 0x00 (0001ms, 0561ms total)
T1220 000:594 JLINK_ExecCommand("Device = STM32F103ZE", ...)Device "STM32F103ZE" selected.  returns 0x00 (0001ms, 0562ms total)
T1220 000:595 JLINK_ExecCommand("DisableConnectionTimeout", ...)  returns 0x01 (0000ms, 0562ms total)
T1220 000:595 JLINK_GetHardwareVersion()  returns 0x13880 (0000ms, 0562ms total)
T1220 000:595 JLINK_GetDLLVersion()  returns 51205 (0000ms, 0562ms total)
T1220 000:595 JLINK_GetFirmwareString(...) (0001ms, 0563ms total)
T1220 000:596 JLINK_GetDLLVersion()  returns 51205 (0000ms, 0563ms total)
T1220 000:596 JLINK_GetCompileDateTime() (0000ms, 0563ms total)
T1220 000:596 JLINK_GetFirmwareString(...) (0000ms, 0563ms total)
T1220 000:596 JLINK_GetHardwareVersion()  returns 0x13880 (0000ms, 0563ms total)
T1220 000:596 JLINK_TIF_Select(JLINKARM_TIF_JTAG)  returns 0x00 (0006ms, 0569ms total)
T1220 000:602 JLINK_SetSpeed(5000) (0001ms, 0570ms total)
T1220 000:603 JLINK_GetIdData(...) >0x2F8 JTAG>TotalIRLen = 9, IRPrint = 0x0011 >0x30 JTAG> >0x210 JTAG> >0x40 JTAG> >0x40 JTAG> >0x40 JTAG> >0x30 JTAG> >0x40 JTAG> >0x40 JTAG> >0x40 JTAG> >0x40 JTAG> >0x40 JTAG> >0x40 JTAG> >0x40 JTAG> >0x40 JTAG> >0x40 JTAG> >0x40 JTAG> >0x40 JTAG> >0x40 JTAG> >0x40 JTAG> >0x40 JTAG> >0x40 JTAG> >0x40 JTAG> >0x40 JTAG> >0x40 JTAG> >0x40 JTAG> >0x40 JTAG> >0x2F8 JTAG>TotalIRLen = 9, IRPrint = 0x0011 >0x30 JTAG> >0x210 JTAG> >0x70 JTAG> >0x50 JTAG> >0x40 JTAG>
 >0x50 JTAG> >0x80 JTAG> >0x40 JTAG> >0x30 JTAG> >0x40 JTAG> >0x40 JTAG> >0x30 JTAG> >0x40 JTAG> >0x50 JTAG>Found Cortex-M3 r1p1, Little endian. -- CPU_ReadMem(4 bytes @ 0xE000EDF0) -- CPU_ReadMem(4 bytes @ 0xE0002000)FPUnit: 6 code (BP) slots and 2 literal slots -- CPU_ReadMem(4 bytes @ 0xE000EDFC) -- CPU_ReadMem(4 bytes @ 0xE0001000) -- CPU_WriteMem(4 bytes @ 0xE0001000) -- CPU_ReadMem(4 bytes @ 0xE000ED88) -- CPU_WriteMem(4 bytes @ 0xE000ED88) -- CPU_ReadMem(4 bytes @ 0xE000ED88)
 -- CPU_WriteMem(4 bytes @ 0xE000ED88)CoreSight components:ROMTbl 0 @ E00FF000 -- CPU_ReadMem(16 bytes @ 0xE00FF000) -- CPU_ReadMem(16 bytes @ 0xE000EFF0) -- CPU_ReadMem(16 bytes @ 0xE000EFE0)ROMTbl 0 [0]: FFF0F000, CID: B105E00D, PID: 001BB000 SCS -- CPU_ReadMem(16 bytes @ 0xE0001FF0) -- CPU_ReadMem(16 bytes @ 0xE0001FE0)ROMTbl 0 [1]: FFF02000, CID: B105E00D, PID: 001BB002 DWT -- CPU_ReadMem(16 bytes @ 0xE0002FF0) -- CPU_ReadMem(16 bytes @ 0xE0002FE0)
ROMTbl 0 [2]: FFF03000, CID: B105E00D, PID: 000BB003 FPB -- CPU_ReadMem(16 bytes @ 0xE0000FF0) -- CPU_ReadMem(16 bytes @ 0xE0000FE0)ROMTbl 0 [3]: FFF01000, CID: B105E00D, PID: 001BB001 ITM -- CPU_ReadMem(16 bytes @ 0xE00FF010) -- CPU_ReadMem(16 bytes @ 0xE0040FF0) -- CPU_ReadMem(16 bytes @ 0xE0040FE0)ROMTbl 0 [4]: FFF41000, CID: B105900D, PID: 001BB923 TPIU-Lite -- CPU_ReadMem(16 bytes @ 0xE0041FF0) -- CPU_ReadMem(16 bytes @ 0xE0041FE0)ROMTbl 0 [5]: FFF42000, CID: B105900D, PID: 101BB924 ETM-M3 ScanLen=9
 NumDevices=2 aId[0]=0x3BA00477 aIrRead[0]=0 aScanLen[0]=0 aScanRead[0]=0 (0075ms, 0645ms total)
T1220 000:678 JLINK_JTAG_GetDeviceID(DeviceIndex = 0)  returns 0x3BA00477 (0000ms, 0645ms total)
T1220 000:678 JLINK_JTAG_GetDeviceInfo(DeviceIndex = 0)  returns 0x00 (0000ms, 0645ms total)
T1220 000:678 JLINK_JTAG_GetDeviceID(DeviceIndex = 1)  returns 0x6414041 (0000ms, 0645ms total)
T1220 000:678 JLINK_JTAG_GetDeviceInfo(DeviceIndex = 1)  returns 0x00 (0000ms, 0645ms total)
T1220 000:678 JLINK_GetDLLVersion()  returns 51205 (0000ms, 0645ms total)
T1220 000:678 JLINK_CORE_GetFound()  returns 0x30000FF (0000ms, 0645ms total)
T1220 000:678 JLINK_GetDebugInfo(0x100) -- Value=0xE00FF003  returns 0x00 (0000ms, 0645ms total)
T1220 000:679 JLINK_GetDebugInfo(0x100) -- Value=0xE00FF003  returns 0x00 (0000ms, 0645ms total)
T1220 000:679 JLINK_GetDebugInfo(0x101) -- Value=0xE0041000  returns 0x00 (0000ms, 0645ms total)
T1220 000:679 JLINK_GetDebugInfo(0x102) -- Value=0x00000000  returns 0x00 (0000ms, 0645ms total)
T1220 000:679 JLINK_GetDebugInfo(0x103) -- Value=0xE0040000  returns 0x00 (0000ms, 0645ms total)
T1220 000:679 JLINK_GetDebugInfo(0x104) -- Value=0xE0000000  returns 0x00 (0000ms, 0645ms total)
T1220 000:679 JLINK_GetDebugInfo(0x105) -- Value=0xE0001000  returns 0x00 (0000ms, 0645ms total)
T1220 000:679 JLINK_GetDebugInfo(0x106) -- Value=0xE0002000  returns 0x00 (0000ms, 0645ms total)
T1220 000:679 JLINK_GetDebugInfo(0x107) -- Value=0xE000E000  returns 0x00 (0000ms, 0645ms total)
T1220 000:679 JLINK_GetDebugInfo(0x10C) -- Value=0xE000EDF0  returns 0x00 (0000ms, 0645ms total)
T1220 000:679 JLINK_ReadMemU32(0xE000ED00, 0x0001 Items, ...) -- CPU is running -- CPU_ReadMem(4 bytes @ 0xE000ED00) - Data: 31 C2 1F 41  returns 0x01 (0001ms, 0646ms total)
T1220 000:681 JLINK_SetResetType(JLINKARM_RESET_TYPE_NORMAL)  returns JLINKARM_RESET_TYPE_NORMAL (0000ms, 0647ms total)
T1220 000:681 JLINK_Reset() -- CPU is running -- CPU_WriteMem(4 bytes @ 0xE000EDF0) -- CPU is running -- CPU_WriteMem(4 bytes @ 0xE000EDFC) -- CPU is running -- CPU_WriteMem(4 bytes @ 0xE000ED0C) -- CPU is running -- CPU_ReadMem(4 bytes @ 0xE000EDF0) -- CPU is running -- CPU_ReadMem(4 bytes @ 0xE000EDF0) -- CPU is running -- CPU_WriteMem(4 bytes @ 0xE000EDF0) -- CPU is running -- CPU_WriteMem(4 bytes @ 0xE000EDFC) -- CPU is running -- CPU_ReadMem(4 bytes @ 0xE000EDF0) >0x80 JTAG> >0x40 JTAG> >0x30 JTAG>
 >0x40 JTAG> >0x50 JTAG> >0x40 JTAG> -- CPU_WriteMem(4 bytes @ 0xE000EDFC) -- CPU_WriteMem(4 bytes @ 0xE0001028) -- CPU_WriteMem(4 bytes @ 0xE0001038) -- CPU_WriteMem(4 bytes @ 0xE0001048) -- CPU_WriteMem(4 bytes @ 0xE0001058) -- CPU_WriteMem(4 bytes @ 0xE0002000) -- CPU_ReadMem(4 bytes @ 0xE000EDFC) -- CPU_ReadMem(4 bytes @ 0xE0001000) (0036ms, 0683ms total)
T1220 000:718 JLINK_ReadReg(R15 (PC))  returns 0x0800143C (0000ms, 0683ms total)
T1220 000:718 JLINK_ReadReg(XPSR)  returns 0x01000000 (0000ms, 0683ms total)
T1220 000:718 JLINK_Halt()  returns 0x00 (0000ms, 0683ms total)
T1220 000:718 JLINK_IsHalted()  returns TRUE (0000ms, 0683ms total)
T1220 000:718 JLINK_ReadMemU32(0xE000EDF0, 0x0001 Items, ...) -- CPU_ReadMem(4 bytes @ 0xE000EDF0) - Data: 03 00 03 00  returns 0x01 (0001ms, 0684ms total)
T1220 000:720 JLINK_WriteU32(0xE000EDF0, 0xA05F0003) -- CPU_WriteMem(4 bytes @ 0xE000EDF0)  returns 0x00 (0001ms, 0685ms total)
T1220 000:721 JLINK_WriteU32(0xE000EDFC, 0x01000000) -- CPU_WriteMem(4 bytes @ 0xE000EDFC)  returns 0x00 (0001ms, 0686ms total)
T1220 000:722 JLINK_GetHWStatus(...)  returns 0x00 (0000ms, 0686ms total)
T1220 000:723 JLINK_GetNumBPUnits(Type = 0xFFFFFF00)  returns 0x06 (0000ms, 0687ms total)
T1220 000:723 JLINK_GetNumBPUnits(Type = 0xF0)  returns 0x2000 (0000ms, 0687ms total)
T1220 000:723 JLINK_GetNumWPUnits()  returns 0x04 (0000ms, 0687ms total)
T1220 000:723 JLINK_GetSpeed()  returns 0x12C0 (0000ms, 0687ms total)
T1220 000:723 JLINK_ReadMemU32(0xE000E004, 0x0001 Items, ...) -- CPU_ReadMem(4 bytes @ 0xE000E004) - Data: 01 00 00 00  returns 0x01 (0001ms, 0688ms total)
T1220 000:724 JLINK_ReadMemU32(0xE000E004, 0x0001 Items, ...) -- CPU_ReadMem(4 bytes @ 0xE000E004) - Data: 01 00 00 00  returns 0x01 (0001ms, 0689ms total)
T1220 000:725 JLINK_WriteMem(0xE0001000, 0x001C Bytes, ...) - Data: 01 00 00 00 00 00 00 00 00 00 00 00 00 00 00 00 ... -- CPU_WriteMem(28 bytes @ 0xE0001000)  returns 0x1C (0002ms, 0691ms total)
T1220 000:727 JLINK_ReadMem (0xE0001000, 0x001C Bytes, ...) -- CPU_ReadMem(28 bytes @ 0xE0001000) - Data: 01 00 00 40 00 00 00 00 00 00 00 00 00 00 00 00 ...  returns 0x00 (0001ms, 0692ms total)
T1220 000:728 JLINK_ReadReg(R15 (PC))  returns 0x0800143C (0000ms, 0692ms total)
T1220 000:728 JLINK_ReadReg(XPSR)  returns 0x01000000 (0000ms, 0692ms total)
T1220 000:859 JLINK_SetResetType(JLINKARM_RESET_TYPE_NORMAL)  returns JLINKARM_RESET_TYPE_NORMAL (0000ms, 0692ms total)
T1220 000:859 JLINK_Reset() -- CPU_WriteMem(4 bytes @ 0xE000EDF0) -- CPU_WriteMem(4 bytes @ 0xE000EDFC) -- CPU_WriteMem(4 bytes @ 0xE000ED0C) -- CPU_ReadMem(4 bytes @ 0xE000EDF0) -- CPU_ReadMem(4 bytes @ 0xE000EDF0) -- CPU_WriteMem(4 bytes @ 0xE000EDF0) -- CPU_WriteMem(4 bytes @ 0xE000EDFC) -- CPU is running -- CPU_ReadMem(4 bytes @ 0xE000EDF0) >0x80 JTAG> >0x40 JTAG> >0x30 JTAG> >0x40 JTAG> >0x50 JTAG> >0x40 JTAG> -- CPU_WriteMem(4 bytes @ 0xE000EDFC) -- CPU_WriteMem(4 bytes @ 0xE0001028)
 -- CPU_WriteMem(4 bytes @ 0xE0001038) -- CPU_WriteMem(4 bytes @ 0xE0001048) -- CPU_WriteMem(4 bytes @ 0xE0001058) -- CPU_WriteMem(4 bytes @ 0xE0002000) -- CPU_ReadMem(4 bytes @ 0xE000EDFC) -- CPU_ReadMem(4 bytes @ 0xE0001000) (0039ms, 0731ms total)
T1220 000:898 JLINK_ReadReg(R15 (PC))  returns 0x0800143C (0000ms, 0731ms total)
T1220 000:898 JLINK_ReadReg(XPSR)  returns 0x01000000 (0000ms, 0731ms total)
T1220 000:898 JLINK_ReadMemU32(0xE0001004, 0x0001 Items, ...) -- CPU_ReadMem(4 bytes @ 0xE0001004) - Data: 3E 07 00 00  returns 0x01 (0002ms, 0733ms total)
T1220 001:473 JLINK_ReadMem (0x0800143C, 0x003C Bytes, ...) -- CPU_ReadMem(128 bytes @ 0x08001400) -- Updating C cache (128 bytes @ 0x08001400) -- Read from C cache (60 bytes @ 0x0800143C) - Data: 09 48 80 47 09 48 00 47 FE E7 FE E7 FE E7 FE E7 ...  returns 0x00 (0002ms, 0735ms total)
T1AA4 005:161 JLINK_SetBPEx(Addr = 0x08000DF4, Type = 0xFFFFFFF2)  returns 0x00000001 (0000ms, 0735ms total)
T1AA4 005:161 JLINK_SetBPEx(Addr = 0x08000E28, Type = 0xFFFFFFF2)  returns 0x00000002 (0000ms, 0735ms total)
T1AA4 005:161 JLINK_Go() -- CPU_ReadMem(4 bytes @ 0xE0001000) -- CPU_WriteMem(4 bytes @ 0xE0002008) -- CPU_WriteMem(4 bytes @ 0xE000200C) -- CPU_WriteMem(4 bytes @ 0xE0002010) -- CPU_WriteMem(4 bytes @ 0xE0002014) -- CPU_WriteMem(4 bytes @ 0xE0002018) -- CPU_WriteMem(4 bytes @ 0xE000201C) -- CPU_WriteMem(4 bytes @ 0xE0001004) (0009ms, 0744ms total)
T1AA4 005:270 JLINK_IsHalted()  returns TRUE (0004ms, 0748ms total)
T1AA4 005:274 JLINK_Halt()  returns 0x00 (0000ms, 0744ms total)
T1AA4 005:274 JLINK_IsHalted()  returns TRUE (0000ms, 0744ms total)
T1AA4 005:274 JLINK_IsHalted()  returns TRUE (0000ms, 0744ms total)
T1AA4 005:274 JLINK_IsHalted()  returns TRUE (0000ms, 0744ms total)
T1AA4 005:274 JLINK_ReadReg(R15 (PC))  returns 0x08000DF4 (0000ms, 0744ms total)
T1AA4 005:274 JLINK_ReadReg(XPSR)  returns 0x21000000 (0000ms, 0744ms total)
T1AA4 005:274 JLINK_ClrBPEx(BPHandle = 0x00000001)  returns 0x00 (0000ms, 0744ms total)
T1AA4 005:274 JLINK_ClrBPEx(BPHandle = 0x00000002)  returns 0x00 (0000ms, 0744ms total)
T1AA4 005:274 JLINK_ReadMemU32(0xE000ED30, 0x0001 Items, ...) -- CPU_ReadMem(4 bytes @ 0xE000ED30) - Data: 03 00 00 00  returns 0x01 (0002ms, 0746ms total)
T1AA4 005:276 JLINK_ReadMemU32(0xE0001028, 0x0001 Items, ...) -- CPU_ReadMem(4 bytes @ 0xE0001028) - Data: 00 00 00 00  returns 0x01 (0001ms, 0747ms total)
T1AA4 005:277 JLINK_ReadMemU32(0xE0001038, 0x0001 Items, ...) -- CPU_ReadMem(4 bytes @ 0xE0001038) - Data: 00 02 00 00  returns 0x01 (0001ms, 0748ms total)
T1AA4 005:278 JLINK_ReadMemU32(0xE0001048, 0x0001 Items, ...) -- CPU_ReadMem(4 bytes @ 0xE0001048) - Data: 00 00 00 00  returns 0x01 (0001ms, 0749ms total)
T1AA4 005:279 JLINK_ReadMemU32(0xE0001058, 0x0001 Items, ...) -- CPU_ReadMem(4 bytes @ 0xE0001058) - Data: 00 00 00 00  returns 0x01 (0001ms, 0750ms total)
T1AA4 005:280 JLINK_ReadReg(R0)  returns 0x20000090 (0000ms, 0750ms total)
T1AA4 005:280 JLINK_ReadReg(R1)  returns 0x20000290 (0000ms, 0750ms total)
T1AA4 005:280 JLINK_ReadReg(R2)  returns 0x20000290 (0000ms, 0750ms total)
T1AA4 005:280 JLINK_ReadReg(R3)  returns 0x20000290 (0000ms, 0750ms total)
T1AA4 005:280 JLINK_ReadReg(R4)  returns 0x00000000 (0000ms, 0750ms total)
T1AA4 005:280 JLINK_ReadReg(R5)  returns 0x20000030 (0000ms, 0750ms total)
T1AA4 005:280 JLINK_ReadReg(R6)  returns 0x00000000 (0000ms, 0750ms total)
T1AA4 005:280 JLINK_ReadReg(R7)  returns 0x00000000 (0000ms, 0750ms total)
T1AA4 005:280 JLINK_ReadReg(R8)  returns 0x00000000 (0000ms, 0750ms total)
T1AA4 005:280 JLINK_ReadReg(R9)  returns 0x20000160 (0000ms, 0750ms total)
T1AA4 005:280 JLINK_ReadReg(R10)  returns 0x08001794 (0000ms, 0750ms total)
T1AA4 005:280 JLINK_ReadReg(R11)  returns 0x00000000 (0000ms, 0750ms total)
T1AA4 005:280 JLINK_ReadReg(R12)  returns 0x20000070 (0000ms, 0750ms total)
T1AA4 005:280 JLINK_ReadReg(R13 (SP))  returns 0x20000690 (0000ms, 0750ms total)
T1AA4 005:280 JLINK_ReadReg(R14)  returns 0x080001CB (0000ms, 0750ms total)
T1AA4 005:280 JLINK_ReadReg(R15 (PC))  returns 0x08000DF4 (0000ms, 0750ms total)
T1AA4 005:280 JLINK_ReadReg(XPSR)  returns 0x21000000 (0000ms, 0750ms total)
T1AA4 005:280 JLINK_ReadReg(MSP)  returns 0x20000690 (0000ms, 0750ms total)
T1AA4 005:280 JLINK_ReadReg(PSP)  returns 0x20000800 (0000ms, 0750ms total)
T1AA4 005:280 JLINK_ReadReg(CFBP)  returns 0x00000000 (0000ms, 0750ms total)
T1220 005:281 JLINK_ReadMem (0x20000684, 0x0001 Bytes, ...) -- CPU_ReadMem(64 bytes @ 0x20000680) -- Updating C cache (64 bytes @ 0x20000680) -- Read from C cache (1 bytes @ 0x20000684) - Data: 90  returns 0x00 (0001ms, 0751ms total)
T1220 005:282 JLINK_ReadMem (0x20000680, 0x0001 Bytes, ...) -- Read from C cache (1 bytes @ 0x20000680) - Data: 90  returns 0x00 (0000ms, 0751ms total)
T1220 005:294 JLINK_ReadMemU32(0xE0001004, 0x0001 Items, ...) -- CPU_ReadMem(4 bytes @ 0xE0001004) - Data: 73 19 00 00  returns 0x01 (0001ms, 0752ms total)
T1220 005:300 JLINK_ReadMem (0x08000DF4, 0x003C Bytes, ...) -- CPU_ReadMem(128 bytes @ 0x08000DC0) -- Updating C cache (128 bytes @ 0x08000DC0) -- Read from C cache (60 bytes @ 0x08000DF4) - Data: 1C B5 00 F0 68 F9 00 F0 83 F8 FF F7 DF FF 00 F0 ...  returns 0x00 (0002ms, 0754ms total)
T1220 073:870 JLINK_SetResetType(JLINKARM_RESET_TYPE_NORMAL)  returns JLINKARM_RESET_TYPE_NORMAL (0000ms, 0754ms total)
T1220 073:870 JLINK_Reset() -- CPU_WriteMem(4 bytes @ 0xE000EDF0) -- CPU_WriteMem(4 bytes @ 0xE000EDFC) -- CPU_WriteMem(4 bytes @ 0xE000ED0C) -- CPU_ReadMem(4 bytes @ 0xE000EDF0) -- CPU_ReadMem(4 bytes @ 0xE000EDF0) -- CPU_WriteMem(4 bytes @ 0xE000EDF0) -- CPU_WriteMem(4 bytes @ 0xE000EDFC) -- CPU is running -- CPU_ReadMem(4 bytes @ 0xE000EDF0) >0x80 JTAG> >0x40 JTAG> >0x30 JTAG> >0x40 JTAG> >0x50 JTAG> >0x40 JTAG> -- CPU_WriteMem(4 bytes @ 0xE000EDFC) -- CPU_WriteMem(4 bytes @ 0xE0001028)
 -- CPU_WriteMem(4 bytes @ 0xE0001038) -- CPU_WriteMem(4 bytes @ 0xE0001048) -- CPU_WriteMem(4 bytes @ 0xE0001058) -- CPU_WriteMem(4 bytes @ 0xE0002000) -- CPU_ReadMem(4 bytes @ 0xE000EDFC) -- CPU_ReadMem(4 bytes @ 0xE0001000) -- CPU_WriteMem(4 bytes @ 0xE0001000) (0039ms, 0793ms total)
T1220 073:909 JLINK_ReadReg(R15 (PC))  returns 0x0800143C (0000ms, 0793ms total)
T1220 073:909 JLINK_ReadReg(XPSR)  returns 0x01000000 (0000ms, 0793ms total)
T1220 073:909 JLINK_ReadMemU32(0xE0001004, 0x0001 Items, ...) -- CPU_ReadMem(4 bytes @ 0xE0001004) - Data: 00 00 00 00  returns 0x01 (0002ms, 0795ms total)
T1220 073:919 JLINK_ReadMem (0x0800143C, 0x003C Bytes, ...) -- CPU_ReadMem(128 bytes @ 0x08001400) -- Updating C cache (128 bytes @ 0x08001400) -- Read from C cache (60 bytes @ 0x0800143C) - Data: 09 48 80 47 09 48 00 47 FE E7 FE E7 FE E7 FE E7 ...  returns 0x00 (0002ms, 0797ms total)
T1AA4 082:808 JLINK_SetBPEx(Addr = 0x08000E14, Type = 0xFFFFFFF2)  returns 0x00000003 (0001ms, 0798ms total)
T1AA4 082:809 JLINK_Go() -- CPU_ReadMem(4 bytes @ 0xE0001000) -- CPU_WriteMem(4 bytes @ 0xE0002008) -- CPU_WriteMem(4 bytes @ 0xE000200C) -- CPU_WriteMem(4 bytes @ 0xE0002010) -- CPU_WriteMem(4 bytes @ 0xE0002014) -- CPU_WriteMem(4 bytes @ 0xE0002018) -- CPU_WriteMem(4 bytes @ 0xE000201C) -- CPU_WriteMem(4 bytes @ 0xE0001004) (0014ms, 0812ms total)
T1AA4 082:923 JLINK_IsHalted()  returns TRUE (0004ms, 0816ms total)
T1AA4 082:927 JLINK_Halt()  returns 0x00 (0000ms, 0812ms total)
T1AA4 082:927 JLINK_IsHalted()  returns TRUE (0000ms, 0812ms total)
T1AA4 082:927 JLINK_IsHalted()  returns TRUE (0000ms, 0812ms total)
T1AA4 082:927 JLINK_IsHalted()  returns TRUE (0000ms, 0812ms total)
T1AA4 082:927 JLINK_ReadReg(R15 (PC))  returns 0x08000E14 (0001ms, 0813ms total)
T1AA4 082:928 JLINK_ReadReg(XPSR)  returns 0x01000000 (0000ms, 0813ms total)
T1AA4 082:928 JLINK_ClrBPEx(BPHandle = 0x00000003)  returns 0x00 (0000ms, 0813ms total)
T1AA4 082:928 JLINK_ReadMemU32(0xE000ED30, 0x0001 Items, ...) -- CPU_ReadMem(4 bytes @ 0xE000ED30) - Data: 03 00 00 00  returns 0x01 (0001ms, 0814ms total)
T1AA4 082:929 JLINK_ReadMemU32(0xE0001028, 0x0001 Items, ...) -- CPU_ReadMem(4 bytes @ 0xE0001028) - Data: 00 00 00 00  returns 0x01 (0001ms, 0815ms total)
T1AA4 082:930 JLINK_ReadMemU32(0xE0001038, 0x0001 Items, ...) -- CPU_ReadMem(4 bytes @ 0xE0001038) - Data: 00 02 00 00  returns 0x01 (0001ms, 0816ms total)
T1AA4 082:931 JLINK_ReadMemU32(0xE0001048, 0x0001 Items, ...) -- CPU_ReadMem(4 bytes @ 0xE0001048) - Data: 00 00 00 00  returns 0x01 (0001ms, 0817ms total)
T1AA4 082:932 JLINK_ReadMemU32(0xE0001058, 0x0001 Items, ...) -- CPU_ReadMem(4 bytes @ 0xE0001058) - Data: 00 00 00 00  returns 0x01 (0001ms, 0818ms total)
T1AA4 082:933 JLINK_ReadReg(R0)  returns 0x0000000C (0000ms, 0818ms total)
T1AA4 082:933 JLINK_ReadReg(R1)  returns 0x08000E50 (0000ms, 0818ms total)
T1AA4 082:933 JLINK_ReadReg(R2)  returns 0x08000E51 (0000ms, 0818ms total)
T1AA4 082:933 JLINK_ReadReg(R3)  returns 0x00000080 (0000ms, 0818ms total)
T1AA4 082:933 JLINK_ReadReg(R4)  returns 0x00000000 (0000ms, 0818ms total)
T1AA4 082:933 JLINK_ReadReg(R5)  returns 0x20000030 (0001ms, 0819ms total)
T1AA4 082:934 JLINK_ReadReg(R6)  returns 0x00000000 (0000ms, 0819ms total)
T1AA4 082:934 JLINK_ReadReg(R7)  returns 0x00000000 (0000ms, 0819ms total)
T1AA4 082:934 JLINK_ReadReg(R8)  returns 0x00000000 (0000ms, 0819ms total)
T1AA4 082:934 JLINK_ReadReg(R9)  returns 0xFFFDDFFC (0000ms, 0819ms total)
T1AA4 082:934 JLINK_ReadReg(R10)  returns 0x08001794 (0000ms, 0819ms total)
T1AA4 082:934 JLINK_ReadReg(R11)  returns 0x00000000 (0000ms, 0819ms total)
T1AA4 082:934 JLINK_ReadReg(R12)  returns 0x00000400 (0000ms, 0819ms total)
T1AA4 082:934 JLINK_ReadReg(R13 (SP))  returns 0x20000680 (0000ms, 0819ms total)
T1AA4 082:934 JLINK_ReadReg(R14)  returns 0x080016C9 (0000ms, 0819ms total)
T1AA4 082:934 JLINK_ReadReg(R15 (PC))  returns 0x08000E14 (0000ms, 0819ms total)
T1AA4 082:934 JLINK_ReadReg(XPSR)  returns 0x01000000 (0000ms, 0819ms total)
T1AA4 082:934 JLINK_ReadReg(MSP)  returns 0x20000680 (0000ms, 0819ms total)
T1AA4 082:934 JLINK_ReadReg(PSP)  returns 0x92C43D24 (0000ms, 0819ms total)
T1AA4 082:934 JLINK_ReadReg(CFBP)  returns 0x00000000 (0000ms, 0819ms total)
T1220 082:935 JLINK_ReadMem (0x2000068C, 0x0004 Bytes, ...) -- CPU_ReadMem(64 bytes @ 0x20000680) -- Updating C cache (64 bytes @ 0x20000680) -- Read from C cache (4 bytes @ 0x2000068C) - Data: CB 01 00 08  returns 0x00 (0001ms, 0820ms total)
T1220 082:936 JLINK_ReadMem (0x20000684, 0x0001 Bytes, ...) -- Read from C cache (1 bytes @ 0x20000684) - Data: 90  returns 0x00 (0000ms, 0820ms total)
T1220 082:936 JLINK_ReadMem (0x20000680, 0x0001 Bytes, ...) -- Read from C cache (1 bytes @ 0x20000680) - Data: 90  returns 0x00 (0000ms, 0820ms total)
T1220 082:951 JLINK_ReadMemU32(0xE0001004, 0x0001 Items, ...) -- CPU_ReadMem(4 bytes @ 0xE0001004) - Data: A8 4B 01 00  returns 0x01 (0002ms, 0822ms total)
T1220 082:957 JLINK_ReadMem (0x08000E14, 0x003C Bytes, ...) -- CPU_ReadMem(128 bytes @ 0x08000E00) -- Updating C cache (128 bytes @ 0x08000E00) -- Read from C cache (60 bytes @ 0x08000E14) - Data: 00 BF 00 F0 84 FA 00 28 FB D1 10 E0 69 46 01 A8 ...  returns 0x00 (0001ms, 0823ms total)
T1AA4 089:346 JLINK_Step() -- Read from C cache (2 bytes @ 0x08000E14) -- CPU_ReadMem(4 bytes @ 0xE000ED18) -- CPU_WriteMem(4 bytes @ 0xE000ED18) -- CPU_ReadMem(4 bytes @ 0xE000ED18) -- CPU_WriteMem(4 bytes @ 0xE000ED18) -- Simulated  returns 0x00 (0005ms, 0828ms total)
T1AA4 089:351 JLINK_ReadReg(R15 (PC))  returns 0x08000E16 (0000ms, 0828ms total)
T1AA4 089:351 JLINK_ReadReg(XPSR)  returns 0x01000000 (0000ms, 0828ms total)
T1AA4 089:351 JLINK_ReadReg(R0)  returns 0x0000000C (0000ms, 0828ms total)
T1AA4 089:351 JLINK_ReadReg(R1)  returns 0x08000E50 (0000ms, 0828ms total)
T1AA4 089:351 JLINK_ReadReg(R2)  returns 0x08000E51 (0000ms, 0828ms total)
T1AA4 089:351 JLINK_ReadReg(R3)  returns 0x00000080 (0001ms, 0829ms total)
T1AA4 089:352 JLINK_ReadReg(R4)  returns 0x00000000 (0000ms, 0829ms total)
T1AA4 089:352 JLINK_ReadReg(R5)  returns 0x20000030 (0000ms, 0829ms total)
T1AA4 089:352 JLINK_ReadReg(R6)  returns 0x00000000 (0000ms, 0829ms total)
T1AA4 089:352 JLINK_ReadReg(R7)  returns 0x00000000 (0000ms, 0829ms total)
T1AA4 089:352 JLINK_ReadReg(R8)  returns 0x00000000 (0000ms, 0829ms total)
T1AA4 089:352 JLINK_ReadReg(R9)  returns 0xFFFDDFFC (0000ms, 0829ms total)
T1AA4 089:352 JLINK_ReadReg(R10)  returns 0x08001794 (0000ms, 0829ms total)
T1AA4 089:352 JLINK_ReadReg(R11)  returns 0x00000000 (0000ms, 0829ms total)
T1AA4 089:352 JLINK_ReadReg(R12)  returns 0x00000400 (0000ms, 0829ms total)
T1AA4 089:352 JLINK_ReadReg(R13 (SP))  returns 0x20000680 (0000ms, 0829ms total)
T1AA4 089:352 JLINK_ReadReg(R14)  returns 0x080016C9 (0000ms, 0829ms total)
T1AA4 089:352 JLINK_ReadReg(R15 (PC))  returns 0x08000E16 (0000ms, 0829ms total)
T1AA4 089:352 JLINK_ReadReg(XPSR)  returns 0x01000000 (0000ms, 0829ms total)
T1AA4 089:352 JLINK_ReadReg(MSP)  returns 0x20000680 (0000ms, 0829ms total)
T1AA4 089:352 JLINK_ReadReg(PSP)  returns 0x92C43D24 (0000ms, 0829ms total)
T1AA4 089:352 JLINK_ReadReg(CFBP)  returns 0x00000000 (0000ms, 0829ms total)
T1220 089:352 JLINK_ReadMem (0x2000068C, 0x0004 Bytes, ...) -- Read from C cache (4 bytes @ 0x2000068C) - Data: CB 01 00 08  returns 0x00 (0000ms, 0829ms total)
T1220 089:353 JLINK_ReadMem (0x20000684, 0x0001 Bytes, ...) -- Read from C cache (1 bytes @ 0x20000684) - Data: 90  returns 0x00 (0000ms, 0829ms total)
T1220 089:353 JLINK_ReadMem (0x20000680, 0x0001 Bytes, ...) -- Read from C cache (1 bytes @ 0x20000680) - Data: 90  returns 0x00 (0000ms, 0829ms total)
T1220 089:353 JLINK_ReadMemU32(0xE0001004, 0x0001 Items, ...) - Data: A8 4B 01 00  returns 0x01 (0000ms, 0829ms total)
T1220 089:360 JLINK_ReadMem (0x08000E14, 0x003C Bytes, ...) -- Read from C cache (60 bytes @ 0x08000E14) - Data: 00 BF 00 F0 84 FA 00 28 FB D1 10 E0 69 46 01 A8 ...  returns 0x00 (0000ms, 0829ms total)
T1AA4 091:071 JLINK_Step() -- Read from C cache (2 bytes @ 0x08000E16) -- Read from C cache (2 bytes @ 0x08000E18) -- Simulated  returns 0x00 (0006ms, 0835ms total)
T1AA4 091:077 JLINK_ReadReg(R15 (PC))  returns 0x08001322 (0000ms, 0835ms total)
T1AA4 091:077 JLINK_ReadReg(XPSR)  returns 0x01000000 (0000ms, 0835ms total)
T1AA4 091:078 JLINK_ReadReg(R0)  returns 0x0000000C (0000ms, 0835ms total)
T1AA4 091:078 JLINK_ReadReg(R1)  returns 0x08000E50 (0000ms, 0835ms total)
T1AA4 091:078 JLINK_ReadReg(R2)  returns 0x08000E51 (0000ms, 0835ms total)
T1AA4 091:078 JLINK_ReadReg(R3)  returns 0x00000080 (0000ms, 0835ms total)
T1AA4 091:078 JLINK_ReadReg(R4)  returns 0x00000000 (0000ms, 0835ms total)
T1AA4 091:078 JLINK_ReadReg(R5)  returns 0x20000030 (0000ms, 0835ms total)
T1AA4 091:078 JLINK_ReadReg(R6)  returns 0x00000000 (0000ms, 0835ms total)
T1AA4 091:078 JLINK_ReadReg(R7)  returns 0x00000000 (0000ms, 0835ms total)
T1AA4 091:078 JLINK_ReadReg(R8)  returns 0x00000000 (0000ms, 0835ms total)
T1AA4 091:078 JLINK_ReadReg(R9)  returns 0xFFFDDFFC (0000ms, 0835ms total)
T1AA4 091:078 JLINK_ReadReg(R10)  returns 0x08001794 (0000ms, 0835ms total)
T1AA4 091:078 JLINK_ReadReg(R11)  returns 0x00000000 (0000ms, 0835ms total)
T1AA4 091:078 JLINK_ReadReg(R12)  returns 0x00000400 (0000ms, 0835ms total)
T1AA4 091:078 JLINK_ReadReg(R13 (SP))  returns 0x20000680 (0000ms, 0835ms total)
T1AA4 091:078 JLINK_ReadReg(R14)  returns 0x08000E1B (0000ms, 0835ms total)
T1AA4 091:078 JLINK_ReadReg(R15 (PC))  returns 0x08001322 (0000ms, 0835ms total)
T1AA4 091:078 JLINK_ReadReg(XPSR)  returns 0x01000000 (0000ms, 0835ms total)
T1AA4 091:078 JLINK_ReadReg(MSP)  returns 0x20000680 (0000ms, 0835ms total)
T1AA4 091:078 JLINK_ReadReg(PSP)  returns 0x92C43D24 (0000ms, 0835ms total)
T1AA4 091:078 JLINK_ReadReg(CFBP)  returns 0x00000000 (0000ms, 0835ms total)
T1220 091:079 JLINK_ReadMem (0x2000068C, 0x0004 Bytes, ...) -- Read from C cache (4 bytes @ 0x2000068C) - Data: CB 01 00 08  returns 0x00 (0000ms, 0835ms total)
T1220 091:094 JLINK_ReadMem (0x20000684, 0x0001 Bytes, ...) -- Read from C cache (1 bytes @ 0x20000684) - Data: 90  returns 0x00 (0000ms, 0835ms total)
T1220 091:094 JLINK_ReadMem (0x20000680, 0x0001 Bytes, ...) -- Read from C cache (1 bytes @ 0x20000680) - Data: 90  returns 0x00 (0000ms, 0835ms total)
T1220 091:094 JLINK_ReadMemU32(0xE0001004, 0x0001 Items, ...) - Data: A8 4B 01 00  returns 0x01 (0001ms, 0836ms total)
T1220 091:097 JLINK_ReadMem (0x08001322, 0x0002 Bytes, ...) -- CPU_ReadMem(64 bytes @ 0x08001300) -- Updating C cache (64 bytes @ 0x08001300) -- Read from C cache (2 bytes @ 0x08001322) - Data: 08 B5  returns 0x00 (0002ms, 0838ms total)
T1220 091:099 JLINK_ReadMem (0x08001324, 0x003C Bytes, ...) -- CPU_ReadMem(64 bytes @ 0x08001340) -- Updating C cache (64 bytes @ 0x08001340) -- Read from C cache (60 bytes @ 0x08001324) - Data: 01 21 04 20 FF F7 74 FA 01 20 AD F8 00 00 10 20 ...  returns 0x00 (0001ms, 0839ms total)
T1220 091:304 JLINK_ReadMem (0x08000E14, 0x003C Bytes, ...) -- Read from C cache (60 bytes @ 0x08000E14) - Data: 00 BF 00 F0 84 FA 00 28 FB D1 10 E0 69 46 01 A8 ...  returns 0x00 (0000ms, 0839ms total)
T1AA4 097:383 JLINK_SetBPEx(Addr = 0x08001352, Type = 0xFFFFFFF2)  returns 0x00000004 (0000ms, 0839ms total)
T1AA4 097:383 JLINK_Go() -- CPU_ReadMem(4 bytes @ 0xE0001000) -- CPU_WriteMem(4 bytes @ 0xE0002008) -- CPU_WriteMem(4 bytes @ 0xE0001004) (0012ms, 0851ms total)
T1AA4 097:498 JLINK_IsHalted()  returns TRUE (0005ms, 0856ms total)
T1AA4 097:503 JLINK_Halt()  returns 0x00 (0000ms, 0851ms total)
T1AA4 097:503 JLINK_IsHalted()  returns TRUE (0000ms, 0851ms total)
T1AA4 097:503 JLINK_IsHalted()  returns TRUE (0000ms, 0851ms total)
T1AA4 097:503 JLINK_IsHalted()  returns TRUE (0000ms, 0851ms total)
T1AA4 097:503 JLINK_ReadReg(R15 (PC))  returns 0x08001352 (0000ms, 0851ms total)
T1AA4 097:503 JLINK_ReadReg(XPSR)  returns 0x61000000 (0000ms, 0851ms total)
T1AA4 097:504 JLINK_ClrBPEx(BPHandle = 0x00000004)  returns 0x00 (0000ms, 0851ms total)
T1AA4 097:504 JLINK_ReadMemU32(0xE000ED30, 0x0001 Items, ...) -- CPU_ReadMem(4 bytes @ 0xE000ED30) - Data: 03 00 00 00  returns 0x01 (0001ms, 0852ms total)
T1AA4 097:505 JLINK_ReadMemU32(0xE0001028, 0x0001 Items, ...) -- CPU_ReadMem(4 bytes @ 0xE0001028) - Data: 00 00 00 00  returns 0x01 (0001ms, 0853ms total)
T1AA4 097:506 JLINK_ReadMemU32(0xE0001038, 0x0001 Items, ...) -- CPU_ReadMem(4 bytes @ 0xE0001038) - Data: 00 02 00 00  returns 0x01 (0001ms, 0854ms total)
T1AA4 097:507 JLINK_ReadMemU32(0xE0001048, 0x0001 Items, ...) -- CPU_ReadMem(4 bytes @ 0xE0001048) - Data: 00 00 00 00  returns 0x01 (0001ms, 0855ms total)
T1AA4 097:508 JLINK_ReadMemU32(0xE0001058, 0x0001 Items, ...) -- CPU_ReadMem(4 bytes @ 0xE0001058) - Data: 00 00 00 00  returns 0x01 (0001ms, 0856ms total)
T1AA4 097:509 JLINK_ReadReg(R0)  returns 0x00010001 (0000ms, 0856ms total)
T1AA4 097:509 JLINK_ReadReg(R1)  returns 0x0000001E (0000ms, 0856ms total)
T1AA4 097:509 JLINK_ReadReg(R2)  returns 0x00000000 (0000ms, 0856ms total)
T1AA4 097:509 JLINK_ReadReg(R3)  returns 0xE000E000 (0000ms, 0856ms total)
T1AA4 097:510 JLINK_ReadReg(R4)  returns 0x00000000 (0000ms, 0856ms total)
T1AA4 097:510 JLINK_ReadReg(R5)  returns 0x20000030 (0000ms, 0856ms total)
T1AA4 097:510 JLINK_ReadReg(R6)  returns 0x00000000 (0000ms, 0856ms total)
T1AA4 097:510 JLINK_ReadReg(R7)  returns 0x00000000 (0000ms, 0856ms total)
T1AA4 097:510 JLINK_ReadReg(R8)  returns 0x00000000 (0000ms, 0856ms total)
T1AA4 097:510 JLINK_ReadReg(R9)  returns 0xFFFDDFFC (0000ms, 0856ms total)
T1AA4 097:510 JLINK_ReadReg(R10)  returns 0x08001794 (0000ms, 0856ms total)
T1AA4 097:510 JLINK_ReadReg(R11)  returns 0x00000000 (0000ms, 0856ms total)
T1AA4 097:510 JLINK_ReadReg(R12)  returns 0x00000001 (0000ms, 0856ms total)
T1AA4 097:510 JLINK_ReadReg(R13 (SP))  returns 0x20000678 (0000ms, 0856ms total)
T1AA4 097:510 JLINK_ReadReg(R14)  returns 0x080011FF (0000ms, 0856ms total)
T1AA4 097:510 JLINK_ReadReg(R15 (PC))  returns 0x08001352 (0000ms, 0856ms total)
T1AA4 097:510 JLINK_ReadReg(XPSR)  returns 0x61000000 (0000ms, 0856ms total)
T1AA4 097:510 JLINK_ReadReg(MSP)  returns 0x20000678 (0000ms, 0856ms total)
T1AA4 097:510 JLINK_ReadReg(PSP)  returns 0x92C43D24 (0000ms, 0856ms total)
T1AA4 097:510 JLINK_ReadReg(CFBP)  returns 0x00000000 (0000ms, 0856ms total)
T1220 097:511 JLINK_ReadMem (0x2000067C, 0x0004 Bytes, ...) -- CPU_ReadMem(64 bytes @ 0x20000640) -- Updating C cache (64 bytes @ 0x20000640) -- Read from C cache (4 bytes @ 0x2000067C) - Data: 1B 0E 00 08  returns 0x00 (0001ms, 0857ms total)
T1220 097:512 JLINK_ReadMem (0x2000068C, 0x0004 Bytes, ...) -- CPU_ReadMem(64 bytes @ 0x20000680) -- Updating C cache (64 bytes @ 0x20000680) -- Read from C cache (4 bytes @ 0x2000068C) - Data: CB 01 00 08  returns 0x00 (0002ms, 0859ms total)
T1220 097:514 JLINK_ReadMem (0x20000684, 0x0001 Bytes, ...) -- Read from C cache (1 bytes @ 0x20000684) - Data: 90  returns 0x00 (0001ms, 0860ms total)
T1220 097:515 JLINK_ReadMem (0x20000680, 0x0001 Bytes, ...) -- Read from C cache (1 bytes @ 0x20000680) - Data: 90  returns 0x00 (0000ms, 0860ms total)
T1220 097:515 JLINK_ReadMemU32(0xE0001004, 0x0001 Items, ...) -- CPU_ReadMem(4 bytes @ 0xE0001004) - Data: 0F 4F 17 00  returns 0x01 (0001ms, 0861ms total)
T1220 097:521 JLINK_ReadMem (0x08001352, 0x0002 Bytes, ...) -- CPU_ReadMem(64 bytes @ 0x08001340) -- Updating C cache (64 bytes @ 0x08001340) -- Read from C cache (2 bytes @ 0x08001352) - Data: FF F7  returns 0x00 (0002ms, 0863ms total)
T1220 097:523 JLINK_ReadMem (0x08001354, 0x003C Bytes, ...) -- CPU_ReadMem(64 bytes @ 0x08001380) -- Updating C cache (64 bytes @ 0x08001380) -- Read from C cache (60 bytes @ 0x08001354) - Data: 55 FF 08 BD 00 08 01 40 80 01 21 42 00 00 21 42 ...  returns 0x00 (0001ms, 0864ms total)
T1AA4 102:502 JLINK_Step() -- Read from C cache (2 bytes @ 0x08001352) -- Read from C cache (2 bytes @ 0x08001354) -- Simulated  returns 0x00 (0002ms, 0866ms total)
T1AA4 102:504 JLINK_ReadReg(R15 (PC))  returns 0x08001200 (0000ms, 0866ms total)
T1AA4 102:504 JLINK_ReadReg(XPSR)  returns 0x61000000 (0000ms, 0866ms total)
T1AA4 102:504 JLINK_ReadReg(R0)  returns 0x00010001 (0000ms, 0866ms total)
T1AA4 102:504 JLINK_ReadReg(R1)  returns 0x0000001E (0000ms, 0866ms total)
T1AA4 102:504 JLINK_ReadReg(R2)  returns 0x00000000 (0000ms, 0866ms total)
T1AA4 102:504 JLINK_ReadReg(R3)  returns 0xE000E000 (0000ms, 0866ms total)
T1AA4 102:504 JLINK_ReadReg(R4)  returns 0x00000000 (0000ms, 0866ms total)
T1AA4 102:504 JLINK_ReadReg(R5)  returns 0x20000030 (0000ms, 0866ms total)
T1AA4 102:504 JLINK_ReadReg(R6)  returns 0x00000000 (0000ms, 0866ms total)
T1AA4 102:504 JLINK_ReadReg(R7)  returns 0x00000000 (0000ms, 0866ms total)
T1AA4 102:504 JLINK_ReadReg(R8)  returns 0x00000000 (0000ms, 0866ms total)
T1AA4 102:504 JLINK_ReadReg(R9)  returns 0xFFFDDFFC (0000ms, 0866ms total)
T1AA4 102:504 JLINK_ReadReg(R10)  returns 0x08001794 (0000ms, 0866ms total)
T1AA4 102:504 JLINK_ReadReg(R11)  returns 0x00000000 (0000ms, 0866ms total)
T1AA4 102:504 JLINK_ReadReg(R12)  returns 0x00000001 (0000ms, 0866ms total)
T1AA4 102:504 JLINK_ReadReg(R13 (SP))  returns 0x20000678 (0000ms, 0866ms total)
T1AA4 102:504 JLINK_ReadReg(R14)  returns 0x08001357 (0001ms, 0867ms total)
T1AA4 102:505 JLINK_ReadReg(R15 (PC))  returns 0x08001200 (0000ms, 0867ms total)
T1AA4 102:505 JLINK_ReadReg(XPSR)  returns 0x61000000 (0000ms, 0867ms total)
T1AA4 102:505 JLINK_ReadReg(MSP)  returns 0x20000678 (0000ms, 0867ms total)
T1AA4 102:505 JLINK_ReadReg(PSP)  returns 0x92C43D24 (0000ms, 0867ms total)
T1AA4 102:505 JLINK_ReadReg(CFBP)  returns 0x00000000 (0000ms, 0867ms total)
T1220 102:509 JLINK_ReadMem (0x2000067C, 0x0004 Bytes, ...) -- Read from C cache (4 bytes @ 0x2000067C) - Data: 1B 0E 00 08  returns 0x00 (0000ms, 0867ms total)
T1220 102:509 JLINK_ReadMem (0x2000068C, 0x0004 Bytes, ...) -- Read from C cache (4 bytes @ 0x2000068C) - Data: CB 01 00 08  returns 0x00 (0000ms, 0867ms total)
T1220 102:509 JLINK_ReadMem (0x00000000, 0x0001 Bytes, ...) -- CPU_ReadMem(4 bytes @ 0x00000004) -- CPU_ReadMem(64 bytes @ 0x08000000) -- Updating C cache (64 bytes @ 0x08000000) -- Read from C cache (1 bytes @ 0x08000000) - Data: 90  returns 0x00 (0003ms, 0870ms total)
T1220 102:523 JLINK_ReadMem (0x20000684, 0x0001 Bytes, ...) -- Read from C cache (1 bytes @ 0x20000684) - Data: 90  returns 0x00 (0000ms, 0870ms total)
T1220 102:523 JLINK_ReadMem (0x20000680, 0x0001 Bytes, ...) -- Read from C cache (1 bytes @ 0x20000680) - Data: 90  returns 0x00 (0000ms, 0870ms total)
T1220 102:523 JLINK_ReadMemU32(0xE0001004, 0x0001 Items, ...) - Data: 0F 4F 17 00  returns 0x01 (0000ms, 0870ms total)
T1220 102:526 JLINK_ReadMem (0x08001200, 0x003C Bytes, ...) -- CPU_ReadMem(64 bytes @ 0x08001200) -- Updating C cache (64 bytes @ 0x08001200) -- Read from C cache (60 bytes @ 0x08001200) - Data: 10 B5 00 24 54 48 00 68 20 F0 0F 00 52 49 08 60 ...  returns 0x00 (0002ms, 0872ms total)
T1AA4 105:199 JLINK_Step() -- Read from C cache (2 bytes @ 0x08001200) -- CPU_WriteMem(8 bytes @ 0x20000670) -- Simulated  returns 0x00 (0002ms, 0874ms total)
T1AA4 105:201 JLINK_ReadReg(R15 (PC))  returns 0x08001202 (0000ms, 0874ms total)
T1AA4 105:202 JLINK_ReadReg(XPSR)  returns 0x61000000 (0000ms, 0874ms total)
T1AA4 105:202 JLINK_ReadReg(R0)  returns 0x00010001 (0000ms, 0874ms total)
T1AA4 105:202 JLINK_ReadReg(R1)  returns 0x0000001E (0000ms, 0874ms total)
T1AA4 105:202 JLINK_ReadReg(R2)  returns 0x00000000 (0000ms, 0874ms total)
T1AA4 105:202 JLINK_ReadReg(R3)  returns 0xE000E000 (0000ms, 0874ms total)
T1AA4 105:202 JLINK_ReadReg(R4)  returns 0x00000000 (0000ms, 0874ms total)
T1AA4 105:202 JLINK_ReadReg(R5)  returns 0x20000030 (0000ms, 0874ms total)
T1AA4 105:202 JLINK_ReadReg(R6)  returns 0x00000000 (0000ms, 0874ms total)
T1AA4 105:202 JLINK_ReadReg(R7)  returns 0x00000000 (0000ms, 0874ms total)
T1AA4 105:202 JLINK_ReadReg(R8)  returns 0x00000000 (0000ms, 0874ms total)
T1AA4 105:202 JLINK_ReadReg(R9)  returns 0xFFFDDFFC (0000ms, 0874ms total)
T1AA4 105:202 JLINK_ReadReg(R10)  returns 0x08001794 (0000ms, 0874ms total)
T1AA4 105:202 JLINK_ReadReg(R11)  returns 0x00000000 (0000ms, 0874ms total)
T1AA4 105:202 JLINK_ReadReg(R12)  returns 0x00000001 (0000ms, 0874ms total)
T1AA4 105:202 JLINK_ReadReg(R13 (SP))  returns 0x20000670 (0000ms, 0874ms total)
T1AA4 105:202 JLINK_ReadReg(R14)  returns 0x08001357 (0000ms, 0874ms total)
T1AA4 105:202 JLINK_ReadReg(R15 (PC))  returns 0x08001202 (0000ms, 0874ms total)
T1AA4 105:202 JLINK_ReadReg(XPSR)  returns 0x61000000 (0000ms, 0874ms total)
T1AA4 105:202 JLINK_ReadReg(MSP)  returns 0x20000670 (0000ms, 0874ms total)
T1AA4 105:203 JLINK_ReadReg(PSP)  returns 0x92C43D24 (0000ms, 0874ms total)
T1AA4 105:203 JLINK_ReadReg(CFBP)  returns 0x00000000 (0000ms, 0874ms total)
T1220 105:206 JLINK_ReadMem (0x20000674, 0x0004 Bytes, ...) -- CPU_ReadMem(64 bytes @ 0x20000640) -- Updating C cache (64 bytes @ 0x20000640) -- Read from C cache (4 bytes @ 0x20000674) - Data: 57 13 00 08  returns 0x00 (0002ms, 0876ms total)
T1220 105:208 JLINK_ReadMem (0x20000670, 0x0004 Bytes, ...) -- Read from C cache (4 bytes @ 0x20000670) - Data: 00 00 00 00  returns 0x00 (0000ms, 0876ms total)
T1220 105:208 JLINK_ReadMem (0x2000067C, 0x0004 Bytes, ...) -- Read from C cache (4 bytes @ 0x2000067C) - Data: 1B 0E 00 08  returns 0x00 (0000ms, 0876ms total)
T1220 105:208 JLINK_ReadMem (0x2000068C, 0x0004 Bytes, ...) -- Read from C cache (4 bytes @ 0x2000068C) - Data: CB 01 00 08  returns 0x00 (0000ms, 0876ms total)
T1220 105:208 JLINK_ReadMem (0x00000000, 0x0001 Bytes, ...) -- Read from C cache (1 bytes @ 0x08000000) - Data: 90  returns 0x00 (0000ms, 0876ms total)
T1220 105:208 JLINK_ReadMem (0x20000684, 0x0001 Bytes, ...) -- Read from C cache (1 bytes @ 0x20000684) - Data: 90  returns 0x00 (0001ms, 0877ms total)
T1220 105:209 JLINK_ReadMem (0x20000680, 0x0001 Bytes, ...) -- Read from C cache (1 bytes @ 0x20000680) - Data: 90  returns 0x00 (0000ms, 0877ms total)
T1220 105:209 JLINK_ReadMemU32(0xE0001004, 0x0001 Items, ...) - Data: 0F 4F 17 00  returns 0x01 (0000ms, 0877ms total)
T1220 105:221 JLINK_ReadMem (0x08001202, 0x0002 Bytes, ...) -- Read from C cache (2 bytes @ 0x08001202) - Data: 00 24  returns 0x00 (0000ms, 0877ms total)
T1220 105:221 JLINK_ReadMem (0x08001204, 0x003C Bytes, ...) -- Read from C cache (60 bytes @ 0x08001204) - Data: 54 48 00 68 20 F0 0F 00 52 49 08 60 08 46 00 68 ...  returns 0x00 (0000ms, 0877ms total)
T1AA4 105:799 JLINK_Step() -- Read from C cache (2 bytes @ 0x08001202) -- Simulated  returns 0x00 (0005ms, 0882ms total)
T1AA4 105:804 JLINK_ReadReg(R15 (PC))  returns 0x08001204 (0000ms, 0882ms total)
T1AA4 105:804 JLINK_ReadReg(XPSR)  returns 0x61000000 (0000ms, 0882ms total)
T1AA4 105:804 JLINK_ReadReg(R0)  returns 0x00010001 (0000ms, 0882ms total)
T1AA4 105:804 JLINK_ReadReg(R1)  returns 0x0000001E (0000ms, 0882ms total)
T1AA4 105:804 JLINK_ReadReg(R2)  returns 0x00000000 (0000ms, 0882ms total)
T1AA4 105:804 JLINK_ReadReg(R3)  returns 0xE000E000 (0001ms, 0883ms total)
T1AA4 105:805 JLINK_ReadReg(R4)  returns 0x00000000 (0000ms, 0883ms total)
T1AA4 105:805 JLINK_ReadReg(R5)  returns 0x20000030 (0000ms, 0883ms total)
T1AA4 105:805 JLINK_ReadReg(R6)  returns 0x00000000 (0000ms, 0883ms total)
T1AA4 105:805 JLINK_ReadReg(R7)  returns 0x00000000 (0000ms, 0883ms total)
T1AA4 105:805 JLINK_ReadReg(R8)  returns 0x00000000 (0000ms, 0883ms total)
T1AA4 105:805 JLINK_ReadReg(R9)  returns 0xFFFDDFFC (0000ms, 0883ms total)
T1AA4 105:805 JLINK_ReadReg(R10)  returns 0x08001794 (0000ms, 0883ms total)
T1AA4 105:805 JLINK_ReadReg(R11)  returns 0x00000000 (0000ms, 0883ms total)
T1AA4 105:805 JLINK_ReadReg(R12)  returns 0x00000001 (0000ms, 0883ms total)
T1AA4 105:805 JLINK_ReadReg(R13 (SP))  returns 0x20000670 (0000ms, 0883ms total)
T1AA4 105:805 JLINK_ReadReg(R14)  returns 0x08001357 (0000ms, 0883ms total)
T1AA4 105:805 JLINK_ReadReg(R15 (PC))  returns 0x08001204 (0000ms, 0883ms total)
T1AA4 105:805 JLINK_ReadReg(XPSR)  returns 0x61000000 (0000ms, 0883ms total)
T1AA4 105:805 JLINK_ReadReg(MSP)  returns 0x20000670 (0000ms, 0883ms total)
T1AA4 105:805 JLINK_ReadReg(PSP)  returns 0x92C43D24 (0000ms, 0883ms total)
T1AA4 105:805 JLINK_ReadReg(CFBP)  returns 0x00000000 (0000ms, 0883ms total)
T1220 105:806 JLINK_ReadMem (0x20000674, 0x0004 Bytes, ...) -- Read from C cache (4 bytes @ 0x20000674) - Data: 57 13 00 08  returns 0x00 (0000ms, 0883ms total)
T1220 105:806 JLINK_ReadMem (0x20000670, 0x0004 Bytes, ...) -- Read from C cache (4 bytes @ 0x20000670) - Data: 00 00 00 00  returns 0x00 (0000ms, 0883ms total)
T1220 105:806 JLINK_ReadMem (0x2000067C, 0x0004 Bytes, ...) -- Read from C cache (4 bytes @ 0x2000067C) - Data: 1B 0E 00 08  returns 0x00 (0000ms, 0883ms total)
T1220 105:806 JLINK_ReadMem (0x2000068C, 0x0004 Bytes, ...) -- Read from C cache (4 bytes @ 0x2000068C) - Data: CB 01 00 08  returns 0x00 (0000ms, 0883ms total)
T1220 105:807 JLINK_ReadMem (0x20000684, 0x0001 Bytes, ...) -- Read from C cache (1 bytes @ 0x20000684) - Data: 90  returns 0x00 (0000ms, 0883ms total)
T1220 105:807 JLINK_ReadMem (0x20000680, 0x0001 Bytes, ...) -- Read from C cache (1 bytes @ 0x20000680) - Data: 90  returns 0x00 (0000ms, 0883ms total)
T1220 105:807 JLINK_ReadMemU32(0xE0001004, 0x0001 Items, ...) - Data: 0F 4F 17 00  returns 0x01 (0000ms, 0883ms total)
T1220 105:816 JLINK_ReadMem (0x08001204, 0x003C Bytes, ...) -- Read from C cache (60 bytes @ 0x08001204) - Data: 54 48 00 68 20 F0 0F 00 52 49 08 60 08 46 00 68 ...  returns 0x00 (0000ms, 0883ms total)
T1AA4 107:614 JLINK_Step() -- Read from C cache (2 bytes @ 0x08001204) -- Read from C cache (4 bytes @ 0x08001358) -- Simulated  returns 0x00 (0006ms, 0889ms total)
T1AA4 107:620 JLINK_ReadReg(R15 (PC))  returns 0x08001206 (0000ms, 0889ms total)
T1AA4 107:620 JLINK_ReadReg(XPSR)  returns 0x61000000 (0000ms, 0889ms total)
T1AA4 107:620 JLINK_Step() -- Read from C cache (2 bytes @ 0x08001206) -- Not simulated -- CPU_WriteMem(4 bytes @ 0xE0002008) -- CPU_WriteMem(4 bytes @ 0xE0001004)  returns 0x00 (0008ms, 0897ms total)
T1AA4 107:629 JLINK_ReadReg(R15 (PC))  returns 0x08001208 (0000ms, 0897ms total)
T1AA4 107:629 JLINK_ReadReg(XPSR)  returns 0x61000000 (0000ms, 0897ms total)
T1AA4 107:629 JLINK_Step() -- CPU_ReadMem(64 bytes @ 0x08001200) -- Updating C cache (64 bytes @ 0x08001200) -- Read from C cache (2 bytes @ 0x08001208) -- CPU_ReadMem(4 bytes @ 0xE0001004) -- Read from C cache (2 bytes @ 0x0800120A) -- Simulated  returns 0x00 (0003ms, 0900ms total)
T1AA4 107:632 JLINK_ReadReg(R15 (PC))  returns 0x0800120C (0000ms, 0900ms total)
T1AA4 107:632 JLINK_ReadReg(XPSR)  returns 0x61000000 (0000ms, 0900ms total)
T1AA4 107:632 JLINK_Step() -- Read from C cache (2 bytes @ 0x0800120C) -- CPU_ReadMem(64 bytes @ 0x08001340) -- Updating C cache (64 bytes @ 0x08001340) -- Read from C cache (4 bytes @ 0x08001358) -- Simulated  returns 0x00 (0001ms, 0901ms total)
T1AA4 107:634 JLINK_ReadReg(R15 (PC))  returns 0x0800120E (0000ms, 0902ms total)
T1AA4 107:634 JLINK_ReadReg(XPSR)  returns 0x61000000 (0000ms, 0902ms total)
T1AA4 107:634 JLINK_Step() -- Read from C cache (2 bytes @ 0x0800120E) -- Not simulated -- CPU_WriteMem(4 bytes @ 0xE0001004)  returns 0x00 (0008ms, 0910ms total)
T1AA4 107:642 JLINK_ReadReg(R15 (PC))  returns 0x08001210 (0000ms, 0910ms total)
T1AA4 107:642 JLINK_ReadReg(XPSR)  returns 0x61000000 (0000ms, 0910ms total)
T1AA4 107:642 JLINK_Step() -- CPU_ReadMem(64 bytes @ 0x08001200) -- Updating C cache (64 bytes @ 0x08001200) -- Read from C cache (2 bytes @ 0x08001210) -- CPU_ReadMem(4 bytes @ 0xE0001004) -- Simulated  returns 0x00 (0002ms, 0912ms total)
T1AA4 107:644 JLINK_ReadReg(R15 (PC))  returns 0x08001212 (0000ms, 0912ms total)
T1AA4 107:644 JLINK_ReadReg(XPSR)  returns 0x61000000 (0000ms, 0912ms total)
T1AA4 107:644 JLINK_Step() -- Read from C cache (2 bytes @ 0x08001212) -- Not simulated -- CPU_WriteMem(4 bytes @ 0xE0001004)  returns 0x00 (0007ms, 0919ms total)
T1AA4 107:651 JLINK_ReadReg(R15 (PC))  returns 0x08001214 (0000ms, 0919ms total)
T1AA4 107:651 JLINK_ReadReg(XPSR)  returns 0x61000000 (0000ms, 0919ms total)
T1AA4 107:651 JLINK_Step() -- CPU_ReadMem(64 bytes @ 0x08001200) -- Updating C cache (64 bytes @ 0x08001200) -- Read from C cache (2 bytes @ 0x08001214) -- CPU_ReadMem(4 bytes @ 0xE0001004) -- Read from C cache (2 bytes @ 0x08001216) -- Simulated  returns 0x00 (0006ms, 0925ms total)
T1AA4 107:657 JLINK_ReadReg(R15 (PC))  returns 0x08001218 (0000ms, 0925ms total)
T1AA4 107:657 JLINK_ReadReg(XPSR)  returns 0x61000000 (0000ms, 0925ms total)
T1AA4 107:657 JLINK_Step() -- Read from C cache (2 bytes @ 0x08001218) -- Not simulated -- CPU_WriteMem(4 bytes @ 0xE0001004)  returns 0x00 (0007ms, 0932ms total)
T1AA4 107:664 JLINK_ReadReg(R15 (PC))  returns 0x0800121A (0000ms, 0932ms total)
T1AA4 107:664 JLINK_ReadReg(XPSR)  returns 0x61000000 (0000ms, 0932ms total)
T1AA4 107:664 JLINK_ReadReg(R0)  returns 0x44444448 (0000ms, 0932ms total)
T1AA4 107:664 JLINK_ReadReg(R1)  returns 0x40010800 (0000ms, 0932ms total)
T1AA4 107:664 JLINK_ReadReg(R2)  returns 0x00000000 (0000ms, 0932ms total)
T1AA4 107:665 JLINK_ReadReg(R3)  returns 0xE000E000 (0000ms, 0932ms total)
T1AA4 107:665 JLINK_ReadReg(R4)  returns 0x00000000 (0000ms, 0932ms total)
T1AA4 107:665 JLINK_ReadReg(R5)  returns 0x20000030 (0000ms, 0932ms total)
T1AA4 107:665 JLINK_ReadReg(R6)  returns 0x00000000 (0000ms, 0932ms total)
T1AA4 107:665 JLINK_ReadReg(R7)  returns 0x00000000 (0000ms, 0932ms total)
T1AA4 107:665 JLINK_ReadReg(R8)  returns 0x00000000 (0000ms, 0932ms total)
T1AA4 107:665 JLINK_ReadReg(R9)  returns 0xFFFDDFFC (0000ms, 0932ms total)
T1AA4 107:665 JLINK_ReadReg(R10)  returns 0x08001794 (0000ms, 0932ms total)
T1AA4 107:665 JLINK_ReadReg(R11)  returns 0x00000000 (0000ms, 0932ms total)
T1AA4 107:665 JLINK_ReadReg(R12)  returns 0x00000001 (0000ms, 0932ms total)
T1AA4 107:665 JLINK_ReadReg(R13 (SP))  returns 0x20000670 (0000ms, 0932ms total)
T1AA4 107:665 JLINK_ReadReg(R14)  returns 0x08001357 (0000ms, 0932ms total)
T1AA4 107:665 JLINK_ReadReg(R15 (PC))  returns 0x0800121A (0000ms, 0932ms total)
T1AA4 107:665 JLINK_ReadReg(XPSR)  returns 0x61000000 (0000ms, 0932ms total)
T1AA4 107:665 JLINK_ReadReg(MSP)  returns 0x20000670 (0000ms, 0932ms total)
T1AA4 107:665 JLINK_ReadReg(PSP)  returns 0x92C43D24 (0000ms, 0932ms total)
T1AA4 107:665 JLINK_ReadReg(CFBP)  returns 0x00000000 (0000ms, 0932ms total)
T1220 107:666 JLINK_ReadMem (0x20000674, 0x0004 Bytes, ...) -- CPU_ReadMem(64 bytes @ 0x20000640) -- Updating C cache (64 bytes @ 0x20000640) -- Read from C cache (4 bytes @ 0x20000674) - Data: 57 13 00 08  returns 0x00 (0001ms, 0933ms total)
T1220 107:667 JLINK_ReadMem (0x20000670, 0x0004 Bytes, ...) -- Read from C cache (4 bytes @ 0x20000670) - Data: 00 00 00 00  returns 0x00 (0000ms, 0933ms total)
T1220 107:667 JLINK_ReadMem (0x2000067C, 0x0004 Bytes, ...) -- Read from C cache (4 bytes @ 0x2000067C) - Data: 1B 0E 00 08  returns 0x00 (0000ms, 0933ms total)
T1220 107:667 JLINK_ReadMem (0x2000068C, 0x0004 Bytes, ...) -- CPU_ReadMem(64 bytes @ 0x20000680) -- Updating C cache (64 bytes @ 0x20000680) -- Read from C cache (4 bytes @ 0x2000068C) - Data: CB 01 00 08  returns 0x00 (0002ms, 0935ms total)
T1220 107:670 JLINK_ReadMem (0x20000684, 0x0001 Bytes, ...) -- Read from C cache (1 bytes @ 0x20000684) - Data: 90  returns 0x00 (0000ms, 0935ms total)
T1220 107:670 JLINK_ReadMem (0x20000680, 0x0001 Bytes, ...) -- Read from C cache (1 bytes @ 0x20000680) - Data: 90  returns 0x00 (0000ms, 0935ms total)
T1220 107:670 JLINK_ReadMemU32(0xE0001004, 0x0001 Items, ...) -- CPU_ReadMem(4 bytes @ 0xE0001004) - Data: 27 4F 17 00  returns 0x01 (0001ms, 0936ms total)
T1220 107:674 JLINK_ReadMem (0x0800121A, 0x0002 Bytes, ...) -- CPU_ReadMem(64 bytes @ 0x08001200) -- Updating C cache (64 bytes @ 0x08001200) -- Read from C cache (2 bytes @ 0x0800121A) - Data: 04 E0  returns 0x00 (0002ms, 0938ms total)
T1220 107:676 JLINK_ReadMem (0x0800121C, 0x003C Bytes, ...) -- CPU_ReadMem(64 bytes @ 0x08001240) -- Updating C cache (64 bytes @ 0x08001240) -- Read from C cache (60 bytes @ 0x0800121C) - Data: 60 1C C4 B2 01 20 00 F0 BA F8 4D 48 80 38 00 68 ...  returns 0x00 (0001ms, 0939ms total)
T1AA4 113:245 JLINK_Step() -- Read from C cache (2 bytes @ 0x0800121A) -- Simulated  returns 0x00 (0002ms, 0941ms total)
T1AA4 113:247 JLINK_ReadReg(R15 (PC))  returns 0x08001226 (0000ms, 0941ms total)
T1AA4 113:247 JLINK_ReadReg(XPSR)  returns 0x61000000 (0000ms, 0941ms total)
T1AA4 113:247 JLINK_ReadReg(R0)  returns 0x44444448 (0000ms, 0941ms total)
T1AA4 113:247 JLINK_ReadReg(R1)  returns 0x40010800 (0000ms, 0941ms total)
T1AA4 113:247 JLINK_ReadReg(R2)  returns 0x00000000 (0000ms, 0941ms total)
T1AA4 113:247 JLINK_ReadReg(R3)  returns 0xE000E000 (0000ms, 0941ms total)
T1AA4 113:247 JLINK_ReadReg(R4)  returns 0x00000000 (0000ms, 0941ms total)
T1AA4 113:247 JLINK_ReadReg(R5)  returns 0x20000030 (0000ms, 0941ms total)
T1AA4 113:247 JLINK_ReadReg(R6)  returns 0x00000000 (0000ms, 0941ms total)
T1AA4 113:247 JLINK_ReadReg(R7)  returns 0x00000000 (0000ms, 0941ms total)
T1AA4 113:247 JLINK_ReadReg(R8)  returns 0x00000000 (0000ms, 0941ms total)
T1AA4 113:247 JLINK_ReadReg(R9)  returns 0xFFFDDFFC (0000ms, 0941ms total)
T1AA4 113:247 JLINK_ReadReg(R10)  returns 0x08001794 (0000ms, 0941ms total)
T1AA4 113:247 JLINK_ReadReg(R11)  returns 0x00000000 (0000ms, 0941ms total)
T1AA4 113:247 JLINK_ReadReg(R12)  returns 0x00000001 (0000ms, 0941ms total)
T1AA4 113:247 JLINK_ReadReg(R13 (SP))  returns 0x20000670 (0000ms, 0941ms total)
T1AA4 113:247 JLINK_ReadReg(R14)  returns 0x08001357 (0000ms, 0941ms total)
T1AA4 113:247 JLINK_ReadReg(R15 (PC))  returns 0x08001226 (0000ms, 0941ms total)
T1AA4 113:247 JLINK_ReadReg(XPSR)  returns 0x61000000 (0001ms, 0942ms total)
T1AA4 113:248 JLINK_ReadReg(MSP)  returns 0x20000670 (0000ms, 0942ms total)
T1AA4 113:248 JLINK_ReadReg(PSP)  returns 0x92C43D24 (0000ms, 0942ms total)
T1AA4 113:248 JLINK_ReadReg(CFBP)  returns 0x00000000 (0000ms, 0942ms total)
T1220 113:248 JLINK_ReadMem (0x20000674, 0x0004 Bytes, ...) -- Read from C cache (4 bytes @ 0x20000674) - Data: 57 13 00 08  returns 0x00 (0000ms, 0942ms total)
T1220 113:248 JLINK_ReadMem (0x20000670, 0x0004 Bytes, ...) -- Read from C cache (4 bytes @ 0x20000670) - Data: 00 00 00 00  returns 0x00 (0000ms, 0942ms total)
T1220 113:248 JLINK_ReadMem (0x2000067C, 0x0004 Bytes, ...) -- Read from C cache (4 bytes @ 0x2000067C) - Data: 1B 0E 00 08  returns 0x00 (0000ms, 0942ms total)
T1220 113:248 JLINK_ReadMem (0x2000068C, 0x0004 Bytes, ...) -- Read from C cache (4 bytes @ 0x2000068C) - Data: CB 01 00 08  returns 0x00 (0000ms, 0942ms total)
T1220 113:248 JLINK_ReadMem (0x20000684, 0x0001 Bytes, ...) -- Read from C cache (1 bytes @ 0x20000684) - Data: 90  returns 0x00 (0000ms, 0942ms total)
T1220 113:248 JLINK_ReadMem (0x20000680, 0x0001 Bytes, ...) -- Read from C cache (1 bytes @ 0x20000680) - Data: 90  returns 0x00 (0000ms, 0942ms total)
T1220 113:248 JLINK_ReadMemU32(0xE0001004, 0x0001 Items, ...) - Data: 27 4F 17 00  returns 0x01 (0000ms, 0942ms total)
T1AA4 114:546 JLINK_ReadMem (0x08001226, 0x0002 Bytes, ...) -- Read from C cache (2 bytes @ 0x08001226) - Data: 4D 48  returns 0x00 (0001ms, 0943ms total)
